#  HZ   S   RI   R     50.0000 
! Rohde & Schwarz ZVA/B 
! 
! Temperature 25C
! Device number 1
! Measured Vcc 3.600000
! Measured Icc 0.011502
! DeltaGain  0.143723
50000000.000000 0.1029771417 -0.2819173634 6.2375731468 5.8299880028 0.0002236216 -0.0000191095 0.0311179496 -0.3796316683
55000000.000000 0.0761790127 -0.2865970731 7.0121049881 5.6111016273 0.0002273577 -0.0001799153 0.0025112114 -0.3553760350
60000000.000000 0.0786506161 -0.2329716235 7.4527921677 5.0885701180 0.0000591451 -0.0000582357 -0.0187113732 -0.3277075887
65000000.000000 0.0648671910 -0.2361143082 7.9442143440 4.6916728020 0.0001688470 -0.0002008586 -0.0362931192 -0.3043379784
70000000.000000 0.0524349399 -0.2237154394 8.4647722244 4.3846511841 0.0002218464 0.0000052218 -0.0521202348 -0.2861517966
75000000.000000 0.0502689853 -0.2007978261 8.7471628189 3.9691774845 0.0002146501 -0.0000865262 -0.0639658198 -0.2659738064
80000000.000000 0.0411821492 -0.1840852946 9.0849046707 3.7423653603 0.0002028389 -0.0001533652 -0.0816360414 -0.2525916994
85000000.000000 0.0436320193 -0.1796806306 9.2322635651 3.2292184830 0.0000966369 -0.0001322750 -0.0840328634 -0.2310374528
90000000.000000 0.0336559862 -0.1675307304 9.4708204269 2.9057166576 0.0001917519 -0.0001671553 -0.0900621787 -0.2180942297
95000000.000000 0.0432598516 -0.1585126519 9.6063098907 2.5736308098 0.0001145997 -0.0001528320 -0.0962084681 -0.2022744268
100000000.000000 0.0372188054 -0.1510507464 9.7650709152 2.2619919777 0.0001511078 -0.0001746864 -0.1017519012 -0.1899339408
105000000.000000 0.0301880632 -0.1465485692 9.9131793976 1.9772223234 0.0001363675 -0.0002203375 -0.1057954431 -0.1763761640
110000000.000000 0.0319742523 -0.1444447637 9.9541168213 1.7040907145 0.0000632670 -0.0002297809 -0.1112231240 -0.1648374498
115000000.000000 0.0291274600 -0.1329378337 10.0385942459 1.3872668743 0.0001494024 -0.0002131495 -0.1125867814 -0.1538434476
120000000.000000 0.0279473998 -0.1284787506 10.1866369247 1.0835303068 0.0001967095 -0.0003495144 -0.1164193824 -0.1428559870
125000000.000000 0.0288147554 -0.1242000163 10.2404985428 0.8423185349 0.0001389915 -0.0002636939 -0.1187482178 -0.1337761581
130000000.000000 0.0244835913 -0.1139027551 10.2383909225 0.6017003059 0.0000987561 -0.0002654799 -0.1183828637 -0.1236539632
135000000.000000 0.0234694555 -0.1136866286 10.2421503067 0.2762866318 0.0000546571 -0.0002998007 -0.1204720885 -0.1157656014
140000000.000000 0.0223518778 -0.1073098257 10.3526144028 0.0747300610 0.0000047675 -0.0004130764 -0.1227400303 -0.1070951372
145000000.000000 0.0208513662 -0.1051044092 10.3544235229 -0.2117253393 0.0000640962 -0.0003686315 -0.1230626106 -0.0989779681
150000000.000000 0.0206264816 -0.1038238332 10.3211936951 -0.4266415238 0.0001516931 -0.0003291135 -0.1239902377 -0.0912487730
155000000.000000 0.0172525588 -0.0980391577 10.3157129288 -0.6576750278 0.0000543892 -0.0004016430 -0.1249260604 -0.0832019150
160000000.000000 0.0169982612 -0.0955099314 10.3517370224 -0.8369144797 0.0001435958 -0.0003648475 -0.1263186038 -0.0763772056
165000000.000000 0.0181523878 -0.0934506655 10.3297204971 -1.0449770689 -0.0000257576 -0.0003469578 -0.1249060258 -0.0691704080
170000000.000000 0.0190867987 -0.0877666026 10.3287496567 -1.3008363247 -0.0000086554 -0.0004257736 -0.1254164875 -0.0625718907
175000000.000000 0.0173757486 -0.0838143975 10.3169727325 -1.4661769867 0.0000546736 -0.0004727158 -0.1253383458 -0.0575414859
180000000.000000 0.0188869610 -0.0891261473 10.3425531387 -1.6653928757 -0.0001272334 -0.0004402029 -0.1251508147 -0.0511902571
185000000.000000 0.0191439278 -0.0856910944 10.2750091553 -1.8459955454 -0.0000401819 -0.0004142212 -0.1239338666 -0.0449099243
190000000.000000 0.0177922230 -0.0790239647 10.2605810165 -2.0452787876 -0.0000915196 -0.0003926556 -0.1237489507 -0.0385903455
195000000.000000 0.0184300561 -0.0756696314 10.2372875214 -2.2171554565 -0.0000915033 -0.0004873225 -0.1230049431 -0.0335576199
200000000.000000 0.0172837861 -0.0759808496 10.1756029129 -2.4023566246 -0.0001074673 -0.0004673486 -0.1236929893 -0.0283624046
205000000.000000 0.0171062630 -0.0728687420 10.1414833069 -2.5752453804 -0.0001424662 -0.0004730857 -0.1212293580 -0.0235724691
210000000.000000 0.0164432172 -0.0726045519 10.1459817886 -2.7429087162 -0.0001779397 -0.0004848520 -0.1209683418 -0.0185927637
215000000.000000 0.0136888074 -0.0719715655 10.0695209503 -2.9261426926 -0.0001425130 -0.0004620512 -0.1200352833 -0.0134678707
220000000.000000 0.0177027304 -0.0702412501 10.0768756866 -3.1081035137 -0.0002064679 -0.0004499714 -0.1185535714 -0.0087789577
225000000.000000 0.0147024570 -0.0696653947 9.9926395416 -3.2692043781 -0.0002074587 -0.0004856845 -0.1181613579 -0.0043959743
230000000.000000 0.0159966946 -0.0648130774 9.9842262268 -3.4101862907 -0.0002251130 -0.0005192332 -0.1162089929 -0.0001024058
235000000.000000 0.0151608624 -0.0640083477 9.9126806259 -3.5946722031 -0.0002382062 -0.0005095364 -0.1155804172 0.0048787077
240000000.000000 0.0147540197 -0.0618941076 9.8233032227 -3.7545824051 -0.0002727374 -0.0005017768 -0.1141444147 0.0089880489
245000000.000000 0.0153609738 -0.0649312958 9.7883892059 -3.9224090576 -0.0003003067 -0.0005515590 -0.1125573963 0.0124654975
250000000.000000 0.0163576901 -0.0632199347 9.7382907867 -4.0542726517 -0.0002691746 -0.0005357719 -0.1106686816 0.0167438425
255000000.000000 0.0113297217 -0.0609237291 9.6774854660 -4.2212419510 -0.0003941646 -0.0005053695 -0.1093968377 0.0203713495
260000000.000000 0.0169889368 -0.0589786842 9.6285734177 -4.3302321434 -0.0003701065 -0.0005684637 -0.1074590608 0.0241369717
265000000.000000 0.0148301655 -0.0567024052 9.5340633392 -4.4994392395 -0.0004622497 -0.0005185127 -0.1056054756 0.0280588306
270000000.000000 0.0156135699 -0.0557586104 9.4880514145 -4.6506876945 -0.0004543869 -0.0005702846 -0.1040108129 0.0316663235
275000000.000000 0.0160972327 -0.0556420572 9.4221811295 -4.7721610069 -0.0004766958 -0.0005431128 -0.1021226570 0.0354552269
280000000.000000 0.0150069688 -0.0538682528 9.3177728653 -4.9061365128 -0.0004578026 -0.0005188816 -0.1003711373 0.0382370614
285000000.000000 0.0127752945 -0.0558493137 9.2789134979 -5.0503873825 -0.0005264353 -0.0005159911 -0.0982185006 0.0415927991
290000000.000000 0.0118673844 -0.0512205884 9.1917495728 -5.1928181648 -0.0005425116 -0.0005578473 -0.0960282832 0.0450795069
295000000.000000 0.0137619907 -0.0527558662 9.1340856552 -5.3504853249 -0.0005410638 -0.0005313594 -0.0941234529 0.0483151563
300000000.000000 0.0146670938 -0.0495159440 9.0737085342 -5.4567375183 -0.0006422233 -0.0005399238 -0.0927178636 0.0516657792
305000000.000000 0.0150255719 -0.0507793687 8.9723148346 -5.5722570419 -0.0006535975 -0.0005246199 -0.0900523886 0.0543592721
310000000.000000 0.0139184529 -0.0510253757 8.8945112228 -5.7108845711 -0.0006737959 -0.0005484678 -0.0883082673 0.0571936779
315000000.000000 0.0154991085 -0.0494282991 8.8280429840 -5.8474555016 -0.0007047086 -0.0005114483 -0.0860655382 0.0596969314
320000000.000000 0.0145963216 -0.0458493121 8.7783088684 -5.9601392746 -0.0006923495 -0.0004832762 -0.0834333822 0.0625823811
325000000.000000 0.0143021457 -0.0454254299 8.6764364243 -6.0695734024 -0.0007164180 -0.0005186127 -0.0818803161 0.0654340312
330000000.000000 0.0140003320 -0.0458698161 8.5954360962 -6.1819977760 -0.0007934076 -0.0005310224 -0.0798259750 0.0683921129
335000000.000000 0.0118693709 -0.0426403880 8.5191593170 -6.3253026009 -0.0008327496 -0.0004752822 -0.0770492181 0.0707743913
340000000.000000 0.0129509717 -0.0484821796 8.4478702545 -6.4384613037 -0.0008493340 -0.0005006107 -0.0751411319 0.0731907785
345000000.000000 0.0122729391 -0.0441681817 8.3200311661 -6.5513806343 -0.0008679497 -0.0004718823 -0.0728754327 0.0754410252
350000000.000000 0.0152853522 -0.0441269502 8.2598943710 -6.6582465172 -0.0008776528 -0.0004528167 -0.0700265393 0.0777458549
355000000.000000 0.0117779430 -0.0423975065 8.1710042953 -6.7714805603 -0.0009127964 -0.0004964416 -0.0680315122 0.0792355984
360000000.000000 0.0113968095 -0.0448805057 8.0843172073 -6.8875398636 -0.0009966869 -0.0004475549 -0.0650848970 0.0816232711
365000000.000000 0.0140445065 -0.0412801094 7.9607081413 -6.9853768349 -0.0010245956 -0.0004131961 -0.0627820492 0.0841012299
370000000.000000 0.0157504324 -0.0412171185 7.8898200989 -7.1043810844 -0.0010739515 -0.0004344955 -0.0603254363 0.0856147110
375000000.000000 0.0132536599 -0.0401401892 7.7902574539 -7.2015151978 -0.0010695008 -0.0004351556 -0.0574696511 0.0873406082
380000000.000000 0.0134173501 -0.0428851731 7.7072710991 -7.3080735207 -0.0011024850 -0.0003954705 -0.0548609681 0.0892888382
385000000.000000 0.0120987380 -0.0410803817 7.6146793365 -7.4048609734 -0.0011584482 -0.0003437141 -0.0521726198 0.0910079777
390000000.000000 0.0147738131 -0.0424640849 7.5077424049 -7.5184597969 -0.0011770047 -0.0003785825 -0.0496236831 0.0930778831
395000000.000000 0.0126616489 -0.0386276282 7.4109058380 -7.6154313087 -0.0012132174 -0.0003193957 -0.0467335731 0.0943408981
400000000.000000 0.0128275305 -0.0397085547 7.3113679886 -7.6976904869 -0.0012508195 -0.0003235012 -0.0438835993 0.0958048478
405000000.000000 0.0146135287 -0.0387353189 7.2126131058 -7.7917709351 -0.0012807018 -0.0002860161 -0.0408644713 0.0973712280
410000000.000000 0.0128370067 -0.0384722091 7.1441316605 -7.9020566940 -0.0013399719 -0.0002905274 -0.0382534154 0.0989338309
415000000.000000 0.0141437966 -0.0361742415 7.0439987183 -7.9718232155 -0.0013656892 -0.0002352670 -0.0353045240 0.1007108986
420000000.000000 0.0149141168 -0.0373261534 6.9349427223 -8.0714769363 -0.0013889766 -0.0002876145 -0.0320965722 0.1019049287
425000000.000000 0.0118045025 -0.0373795405 6.8103170395 -8.1400661469 -0.0014161929 -0.0001943036 -0.0288508534 0.1030391380
430000000.000000 0.0155060897 -0.0357773565 6.7510771751 -8.2409076691 -0.0014265162 -0.0001734510 -0.0261497162 0.1038234532
435000000.000000 0.0121099306 -0.0359886400 6.6312961578 -8.3365945816 -0.0014886451 -0.0001573453 -0.0233888589 0.1050591543
440000000.000000 0.0143495603 -0.0358381532 6.5174059868 -8.4194240570 -0.0015452931 -0.0001355350 -0.0203602538 0.1060782820
445000000.000000 0.0136874914 -0.0336965472 6.4143676758 -8.5102090836 -0.0015615042 -0.0000942722 -0.0171536040 0.1069996580
450000000.000000 0.0165549107 -0.0352897644 6.3107419014 -8.5960521698 -0.0015750977 -0.0000423589 -0.0146162929 0.1081086472
455000000.000000 0.0148990117 -0.0366438217 6.2001757622 -8.7057170868 -0.0016468107 -0.0000489085 -0.0115147512 0.1082402691
460000000.000000 0.0129473247 -0.0346882120 6.0961484909 -8.7591619492 -0.0016415193 0.0000020747 -0.0085707279 0.1094628796
465000000.000000 0.0143385902 -0.0331005380 5.9961853027 -8.8522424698 -0.0017111104 0.0000342915 -0.0056637633 0.1098440140
470000000.000000 0.0155030210 -0.0323176272 5.8821315765 -8.9203062057 -0.0017214529 0.0000504496 -0.0021128706 0.1102488860
475000000.000000 0.0156718008 -0.0346718244 5.7649416924 -8.9934110641 -0.0017528833 0.0001261856 0.0010460386 0.1110718325
480000000.000000 0.0152161075 -0.0329990499 5.6435723305 -9.0616121292 -0.0017837498 0.0001324379 0.0035907591 0.1113958210
485000000.000000 0.0143966600 -0.0325134695 5.5373492241 -9.1266326904 -0.0018098368 0.0001737905 0.0067719519 0.1116599143
490000000.000000 0.0139659252 -0.0319201425 5.4374723434 -9.2041206360 -0.0018580869 0.0002204196 0.0099757407 0.1117694452
495000000.000000 0.0166818742 -0.0322259180 5.3067793846 -9.2850370407 -0.0018703158 0.0002570806 0.0128879286 0.1119903773
500000000.000000 0.0145523539 -0.0324242599 5.2054562569 -9.3629016876 -0.0018845127 0.0003248982 0.0160843506 0.1119261384
505000000.000000 0.0152735375 -0.0317951925 5.0872855186 -9.4048385620 -0.0019215583 0.0003399351 0.0195714720 0.1122758314
510000000.000000 0.0154708065 -0.0312371049 4.9650797844 -9.4863529205 -0.0020010711 0.0004088917 0.0228466485 0.1121097803
515000000.000000 0.0161562599 -0.0309588313 4.8483548164 -9.5476951599 -0.0019755161 0.0004481389 0.0257840827 0.1121229753
520000000.000000 0.0159850493 -0.0308740251 4.7299089432 -9.6078596115 -0.0020489376 0.0004640582 0.0286053512 0.1119583249
525000000.000000 0.0156204775 -0.0307348631 4.6055998802 -9.6541461945 -0.0020453201 0.0005308496 0.0318756513 0.1116829142
530000000.000000 0.0157425161 -0.0298071112 4.5074357986 -9.7314615250 -0.0020680877 0.0005861067 0.0349985100 0.1111290008
535000000.000000 0.0166185144 -0.0286319777 4.3916654587 -9.8003950119 -0.0021224669 0.0006681868 0.0381573625 0.1106920838
540000000.000000 0.0157092940 -0.0284462068 4.2677946091 -9.8338136673 -0.0021472820 0.0006999520 0.0414929464 0.1103501320
545000000.000000 0.0156048015 -0.0284436233 4.1552743912 -9.9078874588 -0.0021584679 0.0007825232 0.0441113748 0.1097268015
550000000.000000 0.0160994530 -0.0281813517 4.0243101120 -9.9528989792 -0.0021735462 0.0008100249 0.0471627563 0.1089015454
555000000.000000 0.0154463667 -0.0272430032 3.9124054909 -10.0183610916 -0.0021781491 0.0008709177 0.0502055958 0.1083170101
560000000.000000 0.0159060117 -0.0269116741 3.7768707275 -10.0607080460 -0.0022131065 0.0009274745 0.0532349758 0.1074822024
565000000.000000 0.0174113866 -0.0270907655 3.6435239315 -10.1090488434 -0.0022112015 0.0009701468 0.0562448017 0.1064074859
570000000.000000 0.0159469899 -0.0275560394 3.5233731270 -10.1736888885 -0.0022506213 0.0010472323 0.0591063574 0.1053850055
575000000.000000 0.0159210544 -0.0268649105 3.4079911709 -10.2111215591 -0.0022710073 0.0010917259 0.0619306117 0.1042710170
580000000.000000 0.0174346119 -0.0257484000 3.2789120674 -10.2610816956 -0.0022776441 0.0011417496 0.0649143606 0.1028281152
585000000.000000 0.0165485702 -0.0258571114 3.1655313969 -10.2916021347 -0.0023189653 0.0012152260 0.0679242387 0.1017970517
590000000.000000 0.0167570524 -0.0254909918 3.0484623909 -10.3637676239 -0.0023298983 0.0013107290 0.0707292557 0.1004148498
595000000.000000 0.0186183993 -0.0251924712 2.9237434864 -10.3942279816 -0.0023250866 0.0013705996 0.0737499893 0.0990324840
600000000.000000 0.0169477165 -0.0236237068 2.7917475700 -10.4129028320 -0.0023447187 0.0014260532 0.0763693079 0.0975207165
605000000.000000 0.0159849711 -0.0255949907 2.6652777195 -10.4614553452 -0.0023600683 0.0015289953 0.0791374817 0.0960649922
610000000.000000 0.0179714710 -0.0246380828 2.5542206764 -10.5072183609 -0.0023528959 0.0015817905 0.0820025578 0.0944603905
615000000.000000 0.0168333184 -0.0237717647 2.4032895565 -10.5299844742 -0.0023735301 0.0016604023 0.0848034248 0.0928143188
620000000.000000 0.0177452266 -0.0254666712 2.2658894062 -10.5785856247 -0.0023633502 0.0016994070 0.0873827189 0.0910531729
625000000.000000 0.0180958677 -0.0235242900 2.1477038860 -10.6083993912 -0.0023705349 0.0017802197 0.0900561213 0.0893198401
630000000.000000 0.0185069125 -0.0235316362 2.0181708336 -10.6310920715 -0.0023976786 0.0018637043 0.0926292017 0.0872648656
635000000.000000 0.0186213311 -0.0235596653 1.8885040283 -10.6721754074 -0.0023711009 0.0019337722 0.0951715484 0.0851850212
640000000.000000 0.0163549446 -0.0235075019 1.7650266886 -10.7020502090 -0.0024015175 0.0020103799 0.0975609198 0.0831981525
645000000.000000 0.0192567147 -0.0237196200 1.6417340040 -10.7338800430 -0.0023830337 0.0020845965 0.1001088098 0.0811166018
650000000.000000 0.0189537704 -0.0226856116 1.4974212646 -10.7640857697 -0.0023823236 0.0021367741 0.1027209833 0.0788722038
655000000.000000 0.0193635002 -0.0223224908 1.3836330175 -10.7784852982 -0.0023623486 0.0022300880 0.1048402712 0.0767156780
660000000.000000 0.0173711535 -0.0221223813 1.2463920116 -10.8099651337 -0.0023696055 0.0023112684 0.1071422249 0.0746129230
665000000.000000 0.0182255618 -0.0221732892 1.1085166931 -10.8168411255 -0.0023447431 0.0023839967 0.1092665866 0.0722060800
670000000.000000 0.0180382002 -0.0228955764 0.9792058468 -10.8474903107 -0.0023462689 0.0024626271 0.1115337238 0.0696934760
675000000.000000 0.0191925373 -0.0215020180 0.8416691422 -10.8574352264 -0.0023283316 0.0025612167 0.1134671196 0.0675375983
680000000.000000 0.0198332146 -0.0205993094 0.7134339809 -10.8749685287 -0.0022957430 0.0026238051 0.1153914481 0.0650522262
685000000.000000 0.0201330539 -0.0208311584 0.5793378353 -10.8880920410 -0.0022944564 0.0027013770 0.1174111143 0.0625526384
690000000.000000 0.0199145488 -0.0207648296 0.4512636364 -10.8995933533 -0.0022722739 0.0027867483 0.1191943660 0.0598394647
695000000.000000 0.0197491795 -0.0201665275 0.3108091056 -10.9110622406 -0.0022649183 0.0028701080 0.1211028174 0.0572945327
700000000.000000 0.0190867893 -0.0191094223 0.1767541617 -10.9276952744 -0.0022302582 0.0029386021 0.1230162680 0.0547782741
705000000.000000 0.0200304929 -0.0198441148 0.0500291511 -10.9374513626 -0.0022041630 0.0030181874 0.1245935112 0.0519100092
710000000.000000 0.0207894091 -0.0197202526 -0.0824790448 -10.9371871948 -0.0021651003 0.0031006909 0.1259433627 0.0491102561
715000000.000000 0.0213526823 -0.0183300246 -0.2171922922 -10.9458093643 -0.0021563638 0.0031891810 0.1273467839 0.0463530980
720000000.000000 0.0213924665 -0.0189238898 -0.3557122946 -10.9558143616 -0.0021165907 0.0032827884 0.1289745420 0.0434045643
725000000.000000 0.0216080043 -0.0207103863 -0.4805217087 -10.9580249786 -0.0020716593 0.0033443838 0.1303037703 0.0406524986
730000000.000000 0.0221400093 -0.0193512347 -0.6195650697 -10.9740419388 -0.0020485490 0.0034320077 0.1314539760 0.0376109891
735000000.000000 0.0221559834 -0.0185626727 -0.7594637871 -10.9638395309 -0.0020086626 0.0035192193 0.1325187087 0.0346987024
740000000.000000 0.0216417219 -0.0191523582 -0.8980087042 -10.9533224106 -0.0019626042 0.0035953904 0.1335699856 0.0318274498
745000000.000000 0.0234156270 -0.0203704443 -1.0359295607 -10.9549179077 -0.0019103839 0.0036852560 0.1345705986 0.0289507788
750000000.000000 0.0231287461 -0.0191677120 -1.1538991928 -10.9371614456 -0.0018583392 0.0037628200 0.1356301457 0.0258894730
755000000.000000 0.0236777700 -0.0184287466 -1.3036031723 -10.9336853027 -0.0018308832 0.0038427473 0.1363566816 0.0229267050
760000000.000000 0.0244570095 -0.0181356370 -1.4401081800 -10.9176006317 -0.0017561160 0.0039175563 0.1372587383 0.0199530181
765000000.000000 0.0237190742 -0.0181054659 -1.5708526373 -10.9125375748 -0.0017048902 0.0040086079 0.1378705353 0.0168346222
770000000.000000 0.0249514207 -0.0179678760 -1.6990855932 -10.9003963470 -0.0016344980 0.0040779305 0.1385296732 0.0136415353
775000000.000000 0.0254045445 -0.0179649126 -1.8420389891 -10.8804321289 -0.0015951330 0.0041557997 0.1390756220 0.0105917789
780000000.000000 0.0258825477 -0.0181270596 -1.9666922092 -10.8767175674 -0.0015342707 0.0041916384 0.1396746933 0.0076023126
785000000.000000 0.0256035943 -0.0164260902 -2.1102740765 -10.8634490967 -0.0014622818 0.0042905379 0.1400172412 0.0045019090
790000000.000000 0.0259353034 -0.0185188875 -2.2503809929 -10.8419713974 -0.0014262523 0.0043427595 0.1404267699 0.0014211970
795000000.000000 0.0261098221 -0.0169356316 -2.3811025620 -10.8192195892 -0.0013478813 0.0044211913 0.1405353248 -0.0016833396
800000000.000000 0.0282077529 -0.0178515762 -2.5168607235 -10.7911014557 -0.0012820982 0.0044753430 0.1406518370 -0.0047952426
805000000.000000 0.0261009168 -0.0176278427 -2.6537468433 -10.7745294571 -0.0012017594 0.0045665805 0.1407231688 -0.0078134444
810000000.000000 0.0270103309 -0.0174992159 -2.7903478146 -10.7344636917 -0.0011496509 0.0046351426 0.1407698989 -0.0107465507
815000000.000000 0.0284571163 -0.0184592381 -2.9285328388 -10.7083568573 -0.0010734319 0.0046829935 0.1406897902 -0.0139933191
820000000.000000 0.0283680055 -0.0184410866 -3.0461361408 -10.6849813461 -0.0009987351 0.0047632838 0.1408223808 -0.0171789881
825000000.000000 0.0290550906 -0.0169179123 -3.1934957504 -10.6590404510 -0.0009339766 0.0048438334 0.1405055672 -0.0202264730
830000000.000000 0.0293358769 -0.0185544211 -3.3194131851 -10.6169242859 -0.0008492387 0.0048646433 0.1402933300 -0.0231652297
