#  HZ   S   RI   R     50.0000 
! Rohde & Schwarz ZVA/B 
! 
! Temperature 25C
! Device number 1
! Measured Vcc 3.300000
! Measured Icc 0.010826
! DeltaGain  0.103501
50000000.000000 0.1345131844 -0.2595379353 5.9767065048 5.4387745857 0.0002656556 -0.0000721142 0.0352133252 -0.3755473495
55000000.000000 0.1196545064 -0.2548851371 6.7011899948 5.1354503632 0.0004236272 -0.0000504366 0.0053228820 -0.3520401120
60000000.000000 0.1046646088 -0.2300664634 7.1512026787 4.7082514763 0.0001355262 -0.0001196626 -0.0149574568 -0.3253709674
65000000.000000 0.0738282651 -0.2098627985 7.6409339905 4.4555201530 0.0002126483 0.0000002871 -0.0322508253 -0.3018280566
70000000.000000 0.0811293274 -0.1838979274 8.0210742950 4.0783624649 0.0002126316 -0.0002058947 -0.0476147868 -0.2828337252
75000000.000000 0.0822351873 -0.1968582273 8.3162260056 3.6851446629 0.0001659220 -0.0001191320 -0.0586815178 -0.2635594904
80000000.000000 0.0763522610 -0.1916028261 8.6642284393 3.4131109715 0.0002970842 -0.0001249635 -0.0777180493 -0.2508495450
85000000.000000 0.0752348751 -0.1747589558 8.7676515579 3.0023317337 0.0003365552 -0.0000906353 -0.0784014463 -0.2293999195
90000000.000000 0.0744783729 -0.1661028266 9.0108146667 2.6694049835 0.0002174233 -0.0001648315 -0.0846115500 -0.2157133222
95000000.000000 0.0743454248 -0.1589711308 9.1580886841 2.3423130512 0.0002212020 -0.0001872227 -0.0908191353 -0.2009697258
100000000.000000 0.0645893961 -0.1505226046 9.2833271027 2.0718402863 0.0002498536 -0.0001390858 -0.0958763361 -0.1892079264
105000000.000000 0.0577223822 -0.1414122581 9.4127321243 1.7927850485 0.0001453258 -0.0001168869 -0.0998037010 -0.1760803461
110000000.000000 0.0655471832 -0.1398861557 9.5019969940 1.5182470083 0.0001608979 -0.0001668783 -0.1053975672 -0.1640345752
115000000.000000 0.0623977929 -0.1308202147 9.5738620758 1.2539947033 0.0001543967 -0.0002384540 -0.1068912446 -0.1534424722
120000000.000000 0.0609399118 -0.1258385032 9.6723890305 0.9946600795 0.0001555996 -0.0002031655 -0.1099176630 -0.1426923722
125000000.000000 0.0607041828 -0.1230832860 9.6561203003 0.6774614453 0.0001237728 -0.0001388888 -0.1127602533 -0.1345812380
130000000.000000 0.0581240579 -0.1173902526 9.6864137650 0.4973101914 0.0000866005 -0.0002396506 -0.1132508069 -0.1239774004
135000000.000000 0.0558141619 -0.1174355969 9.7505493164 0.1554328054 0.0001541020 -0.0002257090 -0.1146615073 -0.1163308918
140000000.000000 0.0555603243 -0.1098527014 9.7327108383 0.0229212027 0.0000996128 -0.0002793601 -0.1166291311 -0.1074821204
145000000.000000 0.0490863100 -0.1099658757 9.7684488297 -0.2235903293 0.0000700310 -0.0003098975 -0.1173807457 -0.0998571068
150000000.000000 0.0573231541 -0.1088647023 9.7723951340 -0.4761897624 0.0001002459 -0.0002618515 -0.1179435775 -0.0921030343
155000000.000000 0.0553910397 -0.1015044153 9.7837476730 -0.6201363802 0.0000949351 -0.0002385477 -0.1191049442 -0.0843235031
160000000.000000 0.0509725884 -0.0985578001 9.8516597748 -0.8521240950 0.0000849115 -0.0002655344 -0.1204906404 -0.0781972483
165000000.000000 0.0480668917 -0.0949694067 9.8188285828 -1.0514254570 -0.0000001925 -0.0002930121 -0.1194598451 -0.0710071996
170000000.000000 0.0488180146 -0.0976845920 9.7847900391 -1.2572437525 -0.0000183058 -0.0003629637 -0.1195857748 -0.0645229518
175000000.000000 0.0518302135 -0.0900902897 9.7885560989 -1.4584462643 -0.0000074629 -0.0003624033 -0.1197606996 -0.0592519529
180000000.000000 0.0499643609 -0.0910363048 9.7587928772 -1.6234674454 0.0000750301 -0.0003526495 -0.1198955849 -0.0533095002
185000000.000000 0.0504173934 -0.0929220617 9.7453756332 -1.8278237581 -0.0000615862 -0.0003867405 -0.1184164137 -0.0472500697
190000000.000000 0.0512234345 -0.0877229199 9.7199478149 -1.9941458702 -0.0000463270 -0.0003797715 -0.1181870624 -0.0408319719
195000000.000000 0.0481275693 -0.0844451711 9.7153406143 -2.1633148193 -0.0000123691 -0.0003543835 -0.1177807599 -0.0359940864
200000000.000000 0.0483285263 -0.0822399482 9.6270952225 -2.3084986210 -0.0000155899 -0.0003986787 -0.1179742590 -0.0312738307
205000000.000000 0.0472415723 -0.0796600953 9.6075839996 -2.4729375839 -0.0000723773 -0.0004052777 -0.1159902066 -0.0260528587
210000000.000000 0.0468501337 -0.0827474669 9.6110639572 -2.6733558178 -0.0000945336 -0.0003555646 -0.1156851053 -0.0215302259
215000000.000000 0.0507577024 -0.0796407163 9.5362300873 -2.8190386295 -0.0001107926 -0.0003764969 -0.1146274358 -0.0162923839
220000000.000000 0.0475607030 -0.0768086463 9.5087518692 -2.9765708447 -0.0001246234 -0.0004300489 -0.1136826724 -0.0119699342
225000000.000000 0.0454457328 -0.0760074183 9.4579696655 -3.1715104580 -0.0001477210 -0.0004469731 -0.1132984757 -0.0073544229
230000000.000000 0.0462133586 -0.0753998533 9.4278507233 -3.2776448727 -0.0001975812 -0.0003784704 -0.1114049852 -0.0033523308
235000000.000000 0.0450134836 -0.0747974515 9.3698644638 -3.4599008560 -0.0001923783 -0.0003892167 -0.1103558615 0.0012957449
240000000.000000 0.0450771786 -0.0745997280 9.3294696808 -3.6202013493 -0.0002167217 -0.0003894282 -0.1091763303 0.0053324737
245000000.000000 0.0476033092 -0.0746215880 9.2526187897 -3.7863175869 -0.0002242330 -0.0003873012 -0.1074998900 0.0090532536
250000000.000000 0.0470511392 -0.0741646960 9.2080583572 -3.9008235931 -0.0002895418 -0.0003710819 -0.1056513265 0.0132513382
255000000.000000 0.0440625623 -0.0693295151 9.1715888977 -4.0255899429 -0.0002724104 -0.0004475722 -0.1045224667 0.0167069118
260000000.000000 0.0462057367 -0.0734515190 9.0808477402 -4.1504325867 -0.0002731387 -0.0004140178 -0.1026495621 0.0201643333
265000000.000000 0.0460559390 -0.0690929443 9.0074329376 -4.3300781250 -0.0003088042 -0.0004159942 -0.1011436209 0.0240553860
270000000.000000 0.0430350564 -0.0676136240 8.9689531326 -4.4492263794 -0.0003218967 -0.0004069708 -0.0995691046 0.0274186172
275000000.000000 0.0470377132 -0.0688579679 8.8956871033 -4.5736207962 -0.0003996792 -0.0004251184 -0.0978654325 0.0312756673
280000000.000000 0.0440527685 -0.0690056533 8.8199815750 -4.7109231949 -0.0004440266 -0.0004362151 -0.0959164202 0.0340324864
285000000.000000 0.0447665118 -0.0673753172 8.7684049606 -4.8249592781 -0.0003948949 -0.0004334836 -0.0940556675 0.0370176062
290000000.000000 0.0407446362 -0.0667979866 8.6838541031 -4.9809370041 -0.0004934999 -0.0004535689 -0.0922473297 0.0403789245
295000000.000000 0.0453688465 -0.0673373789 8.6577682495 -5.0681400299 -0.0004623336 -0.0004379215 -0.0901786312 0.0436561815
300000000.000000 0.0403028503 -0.0646701604 8.5800380707 -5.2072777748 -0.0004969375 -0.0004257625 -0.0886733830 0.0467184000
305000000.000000 0.0427402109 -0.0641590878 8.4980134964 -5.3222632408 -0.0005200525 -0.0004048100 -0.0862909108 0.0494311973
310000000.000000 0.0439457260 -0.0659497827 8.4052219391 -5.4681220055 -0.0005570041 -0.0003590267 -0.0844890326 0.0522417389
315000000.000000 0.0410268120 -0.0647095069 8.3392934799 -5.5842499733 -0.0005393610 -0.0003946016 -0.0824190527 0.0549055748
320000000.000000 0.0423246436 -0.0645981729 8.2659044266 -5.6681728363 -0.0006368186 -0.0004056919 -0.0799981505 0.0573426522
325000000.000000 0.0444806963 -0.0655585229 8.1978950500 -5.8065481186 -0.0006661002 -0.0003966354 -0.0786221400 0.0603087097
330000000.000000 0.0413282216 -0.0657959729 8.1191778183 -5.9164400101 -0.0006593895 -0.0003446823 -0.0765970871 0.0633470416
335000000.000000 0.0411507860 -0.0633631349 8.0192203522 -6.0153951645 -0.0006418589 -0.0003772810 -0.0739975870 0.0658287928
340000000.000000 0.0415803567 -0.0645851716 7.9485998154 -6.1355733871 -0.0007209125 -0.0003781476 -0.0720794797 0.0680713728
345000000.000000 0.0418278649 -0.0637089163 7.8758149147 -6.2497067451 -0.0007219347 -0.0003389586 -0.0699101612 0.0698762611
350000000.000000 0.0434565656 -0.0635183528 7.7943272591 -6.3417463303 -0.0007969468 -0.0003219765 -0.0671829730 0.0722471550
355000000.000000 0.0430870131 -0.0627599433 7.7151904106 -6.4505467415 -0.0008187039 -0.0003173460 -0.0650719255 0.0740392432
360000000.000000 0.0406001285 -0.0619153492 7.6304726601 -6.5506839752 -0.0008234216 -0.0002888158 -0.0625999048 0.0759864822
365000000.000000 0.0417806655 -0.0615356006 7.5258646011 -6.6603317261 -0.0008466147 -0.0002889039 -0.0601943284 0.0782389715
370000000.000000 0.0393055342 -0.0627804846 7.4487247467 -6.7797365189 -0.0008493057 -0.0002676841 -0.0579821318 0.0798387229
375000000.000000 0.0408630744 -0.0604083352 7.3452620506 -6.8422164917 -0.0009519920 -0.0002589060 -0.0552533008 0.0814268291
380000000.000000 0.0404382199 -0.0615730882 7.2589993477 -6.9716148376 -0.0009513085 -0.0002712150 -0.0526593141 0.0834015459
385000000.000000 0.0415344127 -0.0614028424 7.2014374733 -7.0561518669 -0.0009602222 -0.0002536260 -0.0502718799 0.0851324052
390000000.000000 0.0395692550 -0.0611407682 7.0842642784 -7.1342306137 -0.0009959292 -0.0002473943 -0.0478049777 0.0870977864
395000000.000000 0.0377634168 -0.0590534024 6.9793863297 -7.2236204147 -0.0010244724 -0.0002162760 -0.0448070019 0.0886554644
400000000.000000 0.0396389663 -0.0606266223 6.9123458862 -7.3360629082 -0.0010267721 -0.0001699548 -0.0421987921 0.0899066776
405000000.000000 0.0391738825 -0.0602025576 6.8084249496 -7.4165978432 -0.0010928276 -0.0001429151 -0.0393159911 0.0913311690
410000000.000000 0.0378213562 -0.0596148185 6.7129583359 -7.4984512329 -0.0011181993 -0.0001276756 -0.0367362350 0.0928116068
415000000.000000 0.0389737748 -0.0590724461 6.6128916740 -7.5751762390 -0.0011461476 -0.0001332269 -0.0340379775 0.0944124907
420000000.000000 0.0378674120 -0.0599519983 6.5299515724 -7.6755146980 -0.0011912606 -0.0000808644 -0.0311570987 0.0957600176
425000000.000000 0.0387967117 -0.0584498346 6.4151616096 -7.7514209747 -0.0011965709 -0.0000702242 -0.0279869884 0.0967448205
430000000.000000 0.0374118350 -0.0595976673 6.3386602402 -7.8348093033 -0.0012529413 -0.0000146261 -0.0252333395 0.0975935981
435000000.000000 0.0378673561 -0.0587257408 6.2279510498 -7.9427332878 -0.0012331308 -0.0000252067 -0.0228369478 0.0987752974
440000000.000000 0.0388699658 -0.0581471212 6.1382555962 -7.9991540909 -0.0012935204 0.0000172220 -0.0196035020 0.0997381955
445000000.000000 0.0402821675 -0.0595779419 6.0162038803 -8.0934534073 -0.0013124152 0.0000250682 -0.0169526786 0.1005196944
450000000.000000 0.0369422920 -0.0596480407 5.9329137802 -8.1618824005 -0.0013813796 0.0000672165 -0.0143394871 0.1016328484
455000000.000000 0.0370432995 -0.0600546822 5.8299775124 -8.2610406876 -0.0013682347 0.0000961906 -0.0113375522 0.1019008532
460000000.000000 0.0382556170 -0.0588901192 5.7241811752 -8.3160533905 -0.0014174714 0.0001723238 -0.0084610330 0.1031198800
465000000.000000 0.0383097269 -0.0596275888 5.6192049980 -8.3910150528 -0.0014344638 0.0001647358 -0.0057503465 0.1034862772
470000000.000000 0.0415758975 -0.0598814115 5.5366792679 -8.4720869064 -0.0014428422 0.0002028977 -0.0024134407 0.1040464342
475000000.000000 0.0380725116 -0.0578333400 5.4115128517 -8.5402927399 -0.0014789472 0.0002363182 0.0005182018 0.1046829596
480000000.000000 0.0370775908 -0.0575773306 5.3057146072 -8.5958738327 -0.0015228201 0.0002808236 0.0031725559 0.1050405949
485000000.000000 0.0369094983 -0.0605101027 5.1958103180 -8.6705408096 -0.0015221295 0.0003268189 0.0059856311 0.1053679064
490000000.000000 0.0378309153 -0.0584333278 5.0844674110 -8.7592840195 -0.0015333336 0.0003671629 0.0090752020 0.1055726036
495000000.000000 0.0379657783 -0.0583617873 4.9789490700 -8.8090429306 -0.0015834058 0.0003789112 0.0119746784 0.1056831479
500000000.000000 0.0350608900 -0.0602615289 4.8718271255 -8.8880348206 -0.0015992217 0.0004269374 0.0151814586 0.1057640091
505000000.000000 0.0365833566 -0.0573775992 4.7633552551 -8.9288845062 -0.0016258664 0.0004848673 0.0181475766 0.1060134992
510000000.000000 0.0369301848 -0.0584319457 4.6549816132 -9.0058412552 -0.0016869358 0.0005299082 0.0214585941 0.1059621498
515000000.000000 0.0366997160 -0.0571513250 4.5432610512 -9.0654811859 -0.0016761136 0.0005630234 0.0241630133 0.1060187817
520000000.000000 0.0360225402 -0.0574853644 4.4344854355 -9.1244354248 -0.0017157719 0.0006181304 0.0270447787 0.1056978479
525000000.000000 0.0371478535 -0.0565113574 4.3142032623 -9.1712217331 -0.0016976852 0.0006619209 0.0301185232 0.1053715721
530000000.000000 0.0369593725 -0.0583818480 4.2038135529 -9.2537479401 -0.0017494656 0.0006998372 0.0330868438 0.1049907878
535000000.000000 0.0356229432 -0.0567046851 4.0967001915 -9.2964372635 -0.0017578530 0.0007598877 0.0360232294 0.1046744436
540000000.000000 0.0351219252 -0.0568169281 3.9767954350 -9.3512353897 -0.0017910607 0.0007887920 0.0390898362 0.1042310819
545000000.000000 0.0350686871 -0.0573713817 3.8644227982 -9.4001226425 -0.0018054417 0.0008580642 0.0418211967 0.1037987992
550000000.000000 0.0363203250 -0.0567339510 3.7480485439 -9.4419546127 -0.0018039646 0.0008754026 0.0445792601 0.1029680371
555000000.000000 0.0338927805 -0.0570253357 3.6297101974 -9.5138196945 -0.0018243814 0.0009278964 0.0475629643 0.1024147496
560000000.000000 0.0344705321 -0.0562396608 3.5248532295 -9.5339717865 -0.0018378686 0.0009898650 0.0505037419 0.1015949994
565000000.000000 0.0338924788 -0.0556736924 3.4007411003 -9.5933961868 -0.0018890362 0.0010551909 0.0531989336 0.1006740108
570000000.000000 0.0340767615 -0.0586209558 3.2731900215 -9.6327629089 -0.0018699153 0.0010937068 0.0560561940 0.0996144563
575000000.000000 0.0338326655 -0.0561892539 3.1737101078 -9.6706132889 -0.0018879847 0.0011517697 0.0586695001 0.0985919386
580000000.000000 0.0336047076 -0.0572400913 3.0444927216 -9.7306900024 -0.0019049076 0.0012177059 0.0615165383 0.0974177197
585000000.000000 0.0334299207 -0.0571583398 2.9441273212 -9.7708845139 -0.0019317160 0.0012920648 0.0643172637 0.0962344632
590000000.000000 0.0333294272 -0.0576308891 2.8112874031 -9.8197622299 -0.0019473054 0.0013073660 0.0671455786 0.0950611904
595000000.000000 0.0348526090 -0.0557788275 2.6958386898 -9.8555727005 -0.0019367936 0.0013883717 0.0697824582 0.0937953517
600000000.000000 0.0335897058 -0.0556862913 2.5628972054 -9.8680982590 -0.0019294228 0.0014388754 0.0724458843 0.0923981667
605000000.000000 0.0310530346 -0.0556012392 2.4538476467 -9.9086418152 -0.0019561641 0.0015273154 0.0751632154 0.0909782201
610000000.000000 0.0341127031 -0.0554213859 2.3350415230 -9.9484586716 -0.0019442943 0.0015933351 0.0778684095 0.0893870890
615000000.000000 0.0328688882 -0.0550965667 2.2126653194 -9.9853191376 -0.0019523845 0.0016482936 0.0804719552 0.0877572671
620000000.000000 0.0329201706 -0.0547478162 2.0763156414 -10.0082550049 -0.0019570405 0.0017037856 0.0829804242 0.0861284733
625000000.000000 0.0331021138 -0.0558005832 1.9628086090 -10.0512208939 -0.0019340905 0.0017809804 0.0854616091 0.0844239295
630000000.000000 0.0315285958 -0.0542772599 1.8501281738 -10.0723876953 -0.0019500183 0.0018477242 0.0879632980 0.0826476216
635000000.000000 0.0333330743 -0.0543797836 1.7297809124 -10.1013002396 -0.0019451542 0.0019222590 0.0904341713 0.0808686465
640000000.000000 0.0313430578 -0.0561729446 1.6094548702 -10.1365585327 -0.0019645849 0.0019741931 0.0927061290 0.0787655041
645000000.000000 0.0321286805 -0.0552432612 1.4824928045 -10.1547708511 -0.0019466357 0.0020342742 0.0951377079 0.0768096000
650000000.000000 0.0315449424 -0.0553770512 1.3566784859 -10.1978244781 -0.0019201847 0.0021183421 0.0975505859 0.0747939348
655000000.000000 0.0308396146 -0.0554091111 1.2272031307 -10.2147636414 -0.0019300376 0.0021781789 0.0995704830 0.0728205815
660000000.000000 0.0308799073 -0.0535007603 1.1050655842 -10.2227764130 -0.0019170040 0.0022434881 0.1018166542 0.0707429871
665000000.000000 0.0315154083 -0.0554429814 0.9852686524 -10.2435178757 -0.0019025548 0.0023178756 0.1039609164 0.0684412122
670000000.000000 0.0313918553 -0.0564000942 0.8580545783 -10.2699050903 -0.0018920618 0.0023834554 0.1059512869 0.0662216321
675000000.000000 0.0301260110 -0.0543846712 0.7237248421 -10.2801179886 -0.0018553647 0.0024542504 0.1077850610 0.0640434623
680000000.000000 0.0305165816 -0.0552142859 0.6065773964 -10.2797517776 -0.0018349790 0.0025226839 0.1096367165 0.0617132969
685000000.000000 0.0316798575 -0.0549640208 0.4747937620 -10.2952537537 -0.0018402429 0.0025895457 0.1115275472 0.0593407378
690000000.000000 0.0308534540 -0.0535532981 0.3660995364 -10.3074836731 -0.0018070224 0.0026610335 0.1134091690 0.0568856411
695000000.000000 0.0315694921 -0.0541600883 0.2155578583 -10.3249855042 -0.0017758001 0.0027502223 0.1152406931 0.0545463525
700000000.000000 0.0296501294 -0.0538541786 0.1024329737 -10.3289966583 -0.0017473123 0.0027974043 0.1169453934 0.0520535596
705000000.000000 0.0300221834 -0.0544899367 -0.0388368778 -10.3389635086 -0.0017553086 0.0028727204 0.1184322014 0.0493348092
710000000.000000 0.0312326960 -0.0549802706 -0.1486198604 -10.3466987610 -0.0016841434 0.0029678382 0.1197811812 0.0467157178
715000000.000000 0.0301746428 -0.0546314791 -0.2770886123 -10.3489627838 -0.0016575262 0.0030146288 0.1212347746 0.0441241972
720000000.000000 0.0304897595 -0.0552518889 -0.4031811059 -10.3546037674 -0.0016345701 0.0031112749 0.1227706671 0.0414881445
725000000.000000 0.0301020071 -0.0550362319 -0.5256874561 -10.3594646454 -0.0016167983 0.0031770729 0.1240219921 0.0386444628
730000000.000000 0.0296420529 -0.0542891100 -0.6635285020 -10.3574705124 -0.0015619111 0.0032585622 0.1250333041 0.0359822027
735000000.000000 0.0290947370 -0.0537711605 -0.7926076055 -10.3553342819 -0.0015321014 0.0033045821 0.1261466891 0.0331888236
740000000.000000 0.0294373780 -0.0555750579 -0.9179792404 -10.3487539291 -0.0014616722 0.0033698909 0.1271147281 0.0305397045
745000000.000000 0.0302047879 -0.0547640063 -1.0534114838 -10.3323755264 -0.0014325369 0.0034529453 0.1280666143 0.0276087672
750000000.000000 0.0302383974 -0.0543540791 -1.1807109118 -10.3238897324 -0.0013763980 0.0035331647 0.1290073395 0.0247342549
755000000.000000 0.0296745244 -0.0534618236 -1.2989290953 -10.3161554337 -0.0013360549 0.0036039103 0.1298387647 0.0218861904
760000000.000000 0.0298107583 -0.0546980463 -1.4374026060 -10.3024682999 -0.0012888797 0.0036733022 0.1307714731 0.0191256925
765000000.000000 0.0302237142 -0.0543124638 -1.5617609024 -10.2960929871 -0.0012372528 0.0037284982 0.1313848794 0.0161944740
770000000.000000 0.0294302274 -0.0543295071 -1.6876732111 -10.2880592346 -0.0011863663 0.0038061822 0.1318963766 0.0132719707
775000000.000000 0.0297512617 -0.0542511530 -1.8203374147 -10.2663373947 -0.0011273461 0.0038520189 0.1324801743 0.0104921879
780000000.000000 0.0299605485 -0.0550531410 -1.9403704405 -10.2591876984 -0.0010548939 0.0039335131 0.1331080049 0.0075670723
785000000.000000 0.0291315261 -0.0539545044 -2.0718181133 -10.2485113144 -0.0010120694 0.0039974675 0.1334384382 0.0045631146
790000000.000000 0.0292164590 -0.0538482182 -2.2032690048 -10.2180471420 -0.0009411286 0.0040430827 0.1338200718 0.0016907211
795000000.000000 0.0287437364 -0.0544915646 -2.3207123280 -10.2084608078 -0.0008858120 0.0041179359 0.1339441985 -0.0012270216
800000000.000000 0.0291041881 -0.0551821552 -2.4557421207 -10.1738824844 -0.0007935981 0.0041693347 0.1341919303 -0.0042282478
805000000.000000 0.0283024423 -0.0536859743 -2.5807633400 -10.1616830826 -0.0007654086 0.0042012138 0.1342385411 -0.0069859386
810000000.000000 0.0299647711 -0.0551294163 -2.7194259167 -10.1163778305 -0.0006991301 0.0042858627 0.1343270540 -0.0098816929
815000000.000000 0.0303544737 -0.0548672117 -2.8379247189 -10.0976657867 -0.0006269706 0.0043342668 0.1342912465 -0.0128127821
820000000.000000 0.0287738722 -0.0557672381 -2.9633655548 -10.0643539429 -0.0005429384 0.0043794732 0.1342867464 -0.0158984195
825000000.000000 0.0301108696 -0.0556052588 -3.0837271214 -10.0450601578 -0.0004775512 0.0044471608 0.1341317296 -0.0187104754
830000000.000000 0.0304423291 -0.0556747355 -3.2154695988 -9.9947299957 -0.0004022823 0.0045042220 0.1339411885 -0.0216193590
835000000.000000 0.0292170588 -0.0549547002 -3.3427984715 -9.9706230164 -0.0003380055 0.0045444909 0.1336952746 -0.0245787334
