#  HZ   S   RI   R     50.0000 
! Rohde & Schwarz ZVA/B 
! 
! Temperature 25C
! Device number 1
! Measured Vcc 3.000000
! Measured Icc 0.008799
! DeltaGain  0.020093
50000000.000000 0.1778795421 -0.2344781458 5.4929575920 4.7401475906 0.0002415047 0.0000100519 0.0420980379 -0.3708100319
55000000.000000 0.1715939641 -0.2337888628 6.1492338181 4.5279726982 0.0002575690 -0.0000522521 0.0121721635 -0.3474321663
60000000.000000 0.1574574560 -0.2044708580 6.5540094376 4.0841178894 0.0003197145 -0.0000286685 -0.0072908886 -0.3201816380
65000000.000000 0.1396827400 -0.1886574179 6.9310641289 3.8655073643 0.0000967013 0.0000646647 -0.0252325851 -0.2975093424
70000000.000000 0.1429775804 -0.1915154308 7.3528165817 3.5144584179 0.0002677471 -0.0000045188 -0.0394254960 -0.2796697319
75000000.000000 0.1373108774 -0.1784463376 7.5349564552 3.1785676479 0.0001817531 -0.0000403511 -0.0498244427 -0.2602438927
80000000.000000 0.1376481801 -0.1617710441 7.7853221893 2.9665715694 0.0001276961 -0.0000508462 -0.0672587082 -0.2475795895
85000000.000000 0.1329752803 -0.1573112160 7.8787159920 2.5509471893 0.0001734315 -0.0000302823 -0.0687600747 -0.2271588743
90000000.000000 0.1353933066 -0.1590599418 8.1131353378 2.2384107113 0.0001640202 -0.0000494371 -0.0754131749 -0.2139740735
95000000.000000 0.1396492422 -0.1497272849 8.2722854614 2.0244562626 0.0000582582 -0.0000232805 -0.0803352892 -0.1990041733
100000000.000000 0.1360431463 -0.1374946535 8.3711605072 1.7506393194 0.0000705835 -0.0000712783 -0.0855134353 -0.1878732145
105000000.000000 0.1323025376 -0.1402469575 8.4033594131 1.4923750162 0.0001047771 -0.0000568183 -0.0894948766 -0.1749839336
110000000.000000 0.1231496483 -0.1359267682 8.5528850555 1.2418280840 0.0001685790 -0.0000807108 -0.0948744342 -0.1640326679
115000000.000000 0.1263665110 -0.1263199747 8.5911331177 0.9803126454 0.0000951763 -0.0000935003 -0.0966224819 -0.1529982388
120000000.000000 0.1244818941 -0.1244303584 8.6606082916 0.7379647493 0.0002109842 -0.0002054874 -0.1000280455 -0.1426640451
125000000.000000 0.1242737472 -0.1261876374 8.7363395691 0.4936933815 0.0001575094 -0.0000701096 -0.1023417115 -0.1348890215
130000000.000000 0.1224706620 -0.1179459020 8.7537136078 0.2949077785 0.0001967534 -0.0001285278 -0.1027259007 -0.1245911494
135000000.000000 0.1207651943 -0.1228929758 8.7884969711 0.0675317943 0.0001400709 -0.0000917621 -0.1044768393 -0.1171286851
140000000.000000 0.1197702959 -0.1158600599 8.7864046097 -0.0991000310 0.0001272097 -0.0000459192 -0.1059462056 -0.1089222208
145000000.000000 0.1170295328 -0.1154498979 8.7666711807 -0.3112297654 0.0000961165 -0.0001370442 -0.1070627719 -0.1017682627
150000000.000000 0.1186136231 -0.1127691045 8.7786493301 -0.5144596696 0.0001290066 -0.0001450363 -0.1074854359 -0.0939822868
155000000.000000 0.1172108352 -0.1112491786 8.7774744034 -0.6821466684 0.0001341273 -0.0001499704 -0.1085235327 -0.0867111906
160000000.000000 0.1175932214 -0.1070660800 8.7686328888 -0.8791348934 0.0001746061 -0.0001187074 -0.1099227518 -0.0804544985
165000000.000000 0.1163840666 -0.1052913889 8.7848787308 -1.0458011627 0.0001359365 -0.0000991579 -0.1089025512 -0.0737877712
170000000.000000 0.1130040064 -0.1061303169 8.7363653183 -1.2432460785 0.0000759707 -0.0001744141 -0.1091751829 -0.0674186200
175000000.000000 0.1141575277 -0.1022472233 8.7393350601 -1.4247702360 0.0000422789 -0.0001630317 -0.1092746481 -0.0628888160
180000000.000000 0.1149237677 -0.1042460725 8.7460355759 -1.5779983997 0.0001076511 -0.0001323119 -0.1099150181 -0.0565860160
185000000.000000 0.1131258160 -0.1034066901 8.7321224213 -1.7335563898 0.0000785567 -0.0002017655 -0.1084507555 -0.0512553602
190000000.000000 0.1166131943 -0.1002869159 8.6867485046 -1.8726702929 -0.0000055611 -0.0001668630 -0.1084786877 -0.0450861007
195000000.000000 0.1109494641 -0.0976192281 8.6568489075 -2.0328488350 0.0000215230 -0.0001440717 -0.1076990813 -0.0403166637
200000000.000000 0.1139593273 -0.0965589359 8.6256933212 -2.1752510071 -0.0000007855 -0.0001831967 -0.1080551445 -0.0357065648
205000000.000000 0.1101574600 -0.0974013805 8.5802173615 -2.3135738373 -0.0000565087 -0.0002183367 -0.1064999774 -0.0308016371
210000000.000000 0.1115508005 -0.1004719660 8.5608205795 -2.4582226276 -0.0000191477 -0.0001897554 -0.1061545312 -0.0267791301
215000000.000000 0.1110717729 -0.0973297656 8.5429210663 -2.6059300900 -0.0000620260 -0.0001915206 -0.1053307429 -0.0214555990
220000000.000000 0.1093170419 -0.0974156111 8.4767160416 -2.7536354065 -0.0000120863 -0.0002038355 -0.1044493467 -0.0176366828
225000000.000000 0.1094150692 -0.0967789516 8.4466390610 -2.9176323414 -0.0000457095 -0.0001758296 -0.1037369296 -0.0132146832
230000000.000000 0.1091524735 -0.0966462940 8.4211311340 -3.0283944607 -0.0001152321 -0.0001242004 -0.1022701561 -0.0091175130
235000000.000000 0.1088706851 -0.0959526598 8.3701810837 -3.1642735004 -0.0001439482 -0.0002086114 -0.1016339138 -0.0046940716
240000000.000000 0.1069921926 -0.0954239443 8.2940702438 -3.2907936573 -0.0001103386 -0.0002123312 -0.1002661735 -0.0010502348
245000000.000000 0.1056476384 -0.0969274491 8.2867345810 -3.4593017101 -0.0001298208 -0.0002067419 -0.0988895148 0.0021509498
250000000.000000 0.1071469188 -0.0982965529 8.2202119827 -3.5614001751 -0.0001154161 -0.0001908416 -0.0970780849 0.0063136616
255000000.000000 0.1048136875 -0.0961564556 8.1597671509 -3.6824440956 -0.0001835111 -0.0002364535 -0.0960158557 0.0097186724
260000000.000000 0.1075951010 -0.0988775417 8.0876836777 -3.7977838516 -0.0001785014 -0.0001365207 -0.0944492593 0.0130309779
265000000.000000 0.1038741246 -0.0968242809 8.0565500259 -3.9469811916 -0.0002618705 -0.0001898489 -0.0930109695 0.0167977288
270000000.000000 0.1045862213 -0.0971724316 7.9896082878 -4.0499825478 -0.0002137927 -0.0000968533 -0.0916878805 0.0200363211
275000000.000000 0.1072639376 -0.0976235121 7.9412250519 -4.1872820854 -0.0002619321 -0.0001889622 -0.0901143923 0.0235887449
280000000.000000 0.1040667817 -0.0951100960 7.8681888580 -4.2625007629 -0.0002791015 -0.0001645953 -0.0883857384 0.0260476954
285000000.000000 0.1050717533 -0.0957261994 7.7990703583 -4.4187355042 -0.0002690057 -0.0001041120 -0.0865051821 0.0289341919
290000000.000000 0.1006147563 -0.0958512202 7.7354855537 -4.5216531754 -0.0003055547 -0.0001341304 -0.0848781839 0.0320214927
295000000.000000 0.1031181067 -0.0975528136 7.6833310127 -4.6326785088 -0.0003133761 -0.0001370155 -0.0829271376 0.0352377184
300000000.000000 0.1030067950 -0.0959594771 7.6259946823 -4.7266550064 -0.0003158963 -0.0001560229 -0.0816099718 0.0384291299
305000000.000000 0.1012635827 -0.0951798782 7.5449838638 -4.8472929001 -0.0003636902 -0.0001694194 -0.0793855861 0.0407749191
310000000.000000 0.1016949192 -0.0981229395 7.4992809296 -4.9569840431 -0.0003546173 -0.0001213097 -0.0778533742 0.0435351767
315000000.000000 0.0998872817 -0.1000177488 7.4092211723 -5.0612249374 -0.0003845341 -0.0001190856 -0.0759837553 0.0459062904
320000000.000000 0.1005949602 -0.0970995426 7.3409137726 -5.1757111549 -0.0003389700 -0.0001471223 -0.0737167150 0.0484033190
325000000.000000 0.0980693623 -0.0992371812 7.2956781387 -5.2670607567 -0.0004071575 -0.0000862447 -0.0722908154 0.0509918779
330000000.000000 0.0998662263 -0.0970345810 7.2254109383 -5.3636460304 -0.0004484837 -0.0000738639 -0.0706174970 0.0535562038
335000000.000000 0.0959935039 -0.0963950753 7.1238126755 -5.4736227989 -0.0004400208 -0.0000811620 -0.0679882020 0.0560167059
340000000.000000 0.0978356376 -0.1001399308 7.0596737862 -5.5550560951 -0.0005095368 -0.0000768727 -0.0665205196 0.0580537729
345000000.000000 0.0974835530 -0.0988863409 7.0024013519 -5.6645078659 -0.0004538243 -0.0000837348 -0.0645341575 0.0601851456
350000000.000000 0.0952459425 -0.1011114568 6.9080820084 -5.7564148903 -0.0005067496 -0.0000373750 -0.0620619394 0.0621677861
355000000.000000 0.0974361226 -0.0991351455 6.8488993645 -5.8652701378 -0.0005300341 -0.0000711781 -0.0602817461 0.0637552813
360000000.000000 0.0948968753 -0.1004733518 6.7629041672 -5.9409146309 -0.0005382758 -0.0000391566 -0.0577498227 0.0656896010
365000000.000000 0.0935802460 -0.1001255736 6.6715393066 -6.0312528610 -0.0005718780 -0.0000529287 -0.0558211394 0.0677618235
370000000.000000 0.0942184702 -0.1013263986 6.6110320091 -6.1271362305 -0.0005723000 0.0000133804 -0.0535502024 0.0692969561
375000000.000000 0.0926172063 -0.1018380672 6.5228734016 -6.2118768692 -0.0006213092 0.0000130703 -0.0512719378 0.0710577667
380000000.000000 0.0924119502 -0.1021585912 6.4422430992 -6.2997641563 -0.0006347892 0.0000428015 -0.0488682464 0.0728885084
385000000.000000 0.0927286595 -0.1000685170 6.3580393791 -6.3906793594 -0.0006164733 0.0000497310 -0.0466464199 0.0744291544
390000000.000000 0.0907275975 -0.1022064239 6.2604870796 -6.4526176453 -0.0006567641 0.0000797527 -0.0443525799 0.0761211216
395000000.000000 0.0926438868 -0.1032663062 6.1914443970 -6.5581793785 -0.0006872328 0.0000835374 -0.0418018997 0.0777639151
400000000.000000 0.0910767913 -0.1021261290 6.1037034988 -6.6380219460 -0.0006458876 0.0001022124 -0.0393108577 0.0788552165
405000000.000000 0.0890268609 -0.1030628607 6.0106582642 -6.6919808388 -0.0006963433 0.0001166490 -0.0366340950 0.0801890045
410000000.000000 0.0898568556 -0.1034196168 5.9235496521 -6.7805433273 -0.0007294217 0.0001562034 -0.0344695486 0.0817474499
415000000.000000 0.0875017196 -0.1032394543 5.8513512611 -6.8565478325 -0.0007787831 0.0001646672 -0.0319366753 0.0832924247
420000000.000000 0.0885193497 -0.1052636430 5.7670450211 -6.9391822815 -0.0007921990 0.0001989416 -0.0291231554 0.0842736214
425000000.000000 0.0891763642 -0.1042918637 5.6730346680 -6.9926104546 -0.0008024623 0.0002276120 -0.0264624879 0.0853936747
430000000.000000 0.0873129368 -0.1048822254 5.5864052773 -7.0810451508 -0.0008690957 0.0002412153 -0.0239147693 0.0863600150
435000000.000000 0.0874409899 -0.1065246984 5.5117321014 -7.1628136635 -0.0008562849 0.0002490031 -0.0214997269 0.0873223469
440000000.000000 0.0842260048 -0.1049518287 5.4028983116 -7.2260885239 -0.0008481785 0.0002873515 -0.0185279101 0.0882050022
445000000.000000 0.0863642693 -0.1069393978 5.3258132935 -7.2942109108 -0.0008551452 0.0003165494 -0.0161867905 0.0890475288
450000000.000000 0.0848505199 -0.1066470593 5.1975812912 -7.3919973373 -0.0008841105 0.0003361413 -0.0138440626 0.0901359990
455000000.000000 0.0835462660 -0.1080480292 5.1289887428 -7.4642448425 -0.0009125566 0.0003393685 -0.0110484706 0.0903514326
460000000.000000 0.0841676965 -0.1095242426 5.0388503075 -7.5092597008 -0.0009196133 0.0003912935 -0.0085959630 0.0914314315
465000000.000000 0.0823683590 -0.1077395827 4.9486498833 -7.5719423294 -0.0009476417 0.0004242815 -0.0058815228 0.0918830335
470000000.000000 0.0841115713 -0.1083037257 4.8372936249 -7.6286716461 -0.0009418907 0.0004305149 -0.0030090900 0.0923115984
475000000.000000 0.0835502818 -0.1107819304 4.7572288513 -7.7009191513 -0.0009663332 0.0004746736 -0.0001396709 0.0930159688
480000000.000000 0.0821716338 -0.1077423170 4.6553969383 -7.7559194565 -0.0009747335 0.0005497566 0.0021452662 0.0935242251
485000000.000000 0.0783216506 -0.1087213159 4.5696392059 -7.8226318359 -0.0010007046 0.0005603739 0.0047116466 0.0937601700
490000000.000000 0.0809189528 -0.1093707606 4.4537134171 -7.8688287735 -0.0010124347 0.0005727439 0.0075420500 0.0939896554
495000000.000000 0.0799966753 -0.1121565625 4.3605842590 -7.9319782257 -0.0010250792 0.0005999246 0.0100536235 0.0942484140
500000000.000000 0.0786292702 -0.1123262867 4.2494506836 -7.9881949425 -0.0010390001 0.0006574086 0.0129086049 0.0943429545
505000000.000000 0.0775877014 -0.1108212695 4.1467032433 -8.0535230637 -0.0010316785 0.0006852184 0.0158501063 0.0944156498
510000000.000000 0.0778208598 -0.1112845615 4.0542068481 -8.1030464172 -0.0010894981 0.0007377841 0.0187377818 0.0945406631
515000000.000000 0.0760169700 -0.1109928712 3.9639077187 -8.1518335342 -0.0010582076 0.0007528266 0.0213902406 0.0945851356
520000000.000000 0.0743818879 -0.1118799001 3.8595414162 -8.2042465210 -0.0010962478 0.0008036644 0.0237676576 0.0945114270
525000000.000000 0.0738947839 -0.1127928197 3.7568371296 -8.2559833527 -0.0010810965 0.0008318526 0.0265927911 0.0941837728
530000000.000000 0.0750736669 -0.1135733277 3.6579952240 -8.3086624146 -0.0011171919 0.0008738471 0.0293316767 0.0939026326
535000000.000000 0.0726777017 -0.1123305783 3.5573384762 -8.3566246033 -0.0011249733 0.0009205032 0.0320698805 0.0936504528
540000000.000000 0.0728672817 -0.1130574718 3.4516940117 -8.3988838196 -0.0011214451 0.0009804219 0.0349100642 0.0932014287
545000000.000000 0.0725281760 -0.1137406677 3.3391273022 -8.4420213699 -0.0011200559 0.0009918798 0.0372469649 0.0928564742
550000000.000000 0.0711210743 -0.1144656986 3.2420094013 -8.4829130173 -0.0011504716 0.0010533677 0.0397322029 0.0922564939
555000000.000000 0.0688598603 -0.1127386987 3.1369771957 -8.5284643173 -0.0011426944 0.0010495475 0.0425528884 0.0916977227
560000000.000000 0.0699720383 -0.1153271422 3.0268831253 -8.5692138672 -0.0011557641 0.0011427552 0.0452342629 0.0910176858
565000000.000000 0.0687141418 -0.1151048169 2.9299259186 -8.6177110672 -0.0011651585 0.0011512593 0.0477527045 0.0902853534
570000000.000000 0.0678475574 -0.1168736666 2.8267569542 -8.6448802948 -0.0011591330 0.0012309307 0.0500812382 0.0892171338
575000000.000000 0.0675594956 -0.1152348295 2.7116494179 -8.7004556656 -0.0011448064 0.0012589942 0.0526469424 0.0884542167
580000000.000000 0.0658708289 -0.1155629307 2.5982644558 -8.7403078079 -0.0011581120 0.0013088718 0.0553381927 0.0871670991
585000000.000000 0.0664523691 -0.1158207133 2.5082967281 -8.7541780472 -0.0011561668 0.0013350523 0.0578078516 0.0864569470
590000000.000000 0.0662407950 -0.1163352281 2.3998491764 -8.7893009186 -0.0011946944 0.0014073418 0.0601613931 0.0854540169
595000000.000000 0.0656126663 -0.1173747480 2.2878906727 -8.8369493484 -0.0011725092 0.0014695682 0.0627000630 0.0842523798
600000000.000000 0.0637912080 -0.1171036810 2.1772382259 -8.8547306061 -0.0011421324 0.0015088653 0.0651492923 0.0829428360
605000000.000000 0.0617979206 -0.1173378527 2.0688807964 -8.8875169754 -0.0011434959 0.0015437154 0.0676509589 0.0817569271
610000000.000000 0.0629784390 -0.1179813594 1.9688099623 -8.9296369553 -0.0011268636 0.0015768162 0.0701468885 0.0804433152
615000000.000000 0.0611119308 -0.1169215813 1.8509405851 -8.9475049973 -0.0011599745 0.0016176177 0.0725446567 0.0791161135
620000000.000000 0.0595179088 -0.1187762693 1.7358365059 -8.9724454880 -0.0011539137 0.0016992113 0.0747243240 0.0776887536
625000000.000000 0.0598358698 -0.1182164848 1.6224690676 -8.9918069839 -0.0011431486 0.0017363525 0.0770854801 0.0760848895
630000000.000000 0.0595278703 -0.1180490479 1.5136876106 -9.0068655014 -0.0010987120 0.0018053007 0.0794028714 0.0744400173
635000000.000000 0.0563952252 -0.1185727045 1.4060902596 -9.0492229462 -0.0010912605 0.0018439462 0.0815719143 0.0726273358
640000000.000000 0.0581144430 -0.1187570542 1.3057668209 -9.0608882904 -0.0011150788 0.0018903349 0.0838314593 0.0710730031
645000000.000000 0.0559125394 -0.1192751601 1.1921311617 -9.0860433578 -0.0010855128 0.0019576675 0.0858425871 0.0692190006
650000000.000000 0.0553312190 -0.1191486865 1.0759944916 -9.1190767288 -0.0010811853 0.0020026441 0.0881490856 0.0674570799
655000000.000000 0.0539312325 -0.1189632118 0.9786498547 -9.1291208267 -0.0010637406 0.0020512536 0.0901361778 0.0657021850
660000000.000000 0.0536696464 -0.1192970052 0.8578716516 -9.1338396072 -0.0010454615 0.0020983908 0.0920040458 0.0639023557
665000000.000000 0.0528973602 -0.1217866838 0.7377803326 -9.1571578979 -0.0010027675 0.0021700677 0.0939275995 0.0619529672
670000000.000000 0.0519241467 -0.1188647225 0.6293012500 -9.1588983536 -0.0009835543 0.0022147445 0.0958266258 0.0598891079
675000000.000000 0.0523857474 -0.1209795028 0.5207322240 -9.1738462448 -0.0009793092 0.0022512495 0.0975116715 0.0579907186
680000000.000000 0.0511618182 -0.1221048236 0.4063507020 -9.1802015305 -0.0009469113 0.0023226349 0.0993191227 0.0559483618
685000000.000000 0.0493340231 -0.1214721948 0.2829603553 -9.1916399002 -0.0009350851 0.0023748977 0.1009628177 0.0538719296
690000000.000000 0.0490914807 -0.1214415058 0.1744499952 -9.1931877136 -0.0008898501 0.0024367585 0.1025859192 0.0517039411
695000000.000000 0.0499500893 -0.1215938926 0.0618440881 -9.2070436478 -0.0008758559 0.0024708339 0.1043505073 0.0495111533
700000000.000000 0.0482211597 -0.1219221503 -0.0406429395 -9.2096958160 -0.0008506368 0.0025318388 0.1060174555 0.0474245399
705000000.000000 0.0477559939 -0.1216560528 -0.1637603492 -9.2031106949 -0.0008350247 0.0025796720 0.1073569506 0.0449549370
710000000.000000 0.0473435260 -0.1223111525 -0.2704270780 -9.2217588425 -0.0007600559 0.0026268307 0.1085181013 0.0425853468
715000000.000000 0.0455581509 -0.1234868318 -0.3796141446 -9.2124795914 -0.0007642655 0.0026860163 0.1099878699 0.0404466689
720000000.000000 0.0449384488 -0.1229579449 -0.5050397515 -9.2260780334 -0.0007039469 0.0027254622 0.1114886925 0.0380254462
725000000.000000 0.0426902734 -0.1225702986 -0.6185968518 -9.2242259979 -0.0006743427 0.0027946038 0.1126101911 0.0355090387
730000000.000000 0.0435173586 -0.1227654666 -0.7280067205 -9.2204256058 -0.0006476894 0.0028520529 0.1135027334 0.0330032744
735000000.000000 0.0426591113 -0.1230551526 -0.8479822874 -9.2107534409 -0.0006045030 0.0029156117 0.1144253537 0.0306994282
740000000.000000 0.0411114842 -0.1238227189 -0.9665125608 -9.2059078217 -0.0005639167 0.0029647034 0.1154495031 0.0281880684
745000000.000000 0.0403781757 -0.1253187954 -1.0716469288 -9.1880350113 -0.0005214065 0.0030142947 0.1164596751 0.0257004146
750000000.000000 0.0409897380 -0.1243059561 -1.1890077591 -9.1731576920 -0.0004819079 0.0030443757 0.1172931716 0.0231804121
755000000.000000 0.0400379896 -0.1238703877 -1.3039644957 -9.1673688889 -0.0004136926 0.0031032534 0.1181645319 0.0206107534
760000000.000000 0.0380827859 -0.1244733557 -1.4143347740 -9.1557617188 -0.0003610853 0.0031590960 0.1188824326 0.0179972015
765000000.000000 0.0379611924 -0.1245570928 -1.5229190588 -9.1459436417 -0.0003230430 0.0032081315 0.1194239631 0.0154830124
770000000.000000 0.0375571288 -0.1243665218 -1.6444866657 -9.1254158020 -0.0002706198 0.0032574472 0.1200939268 0.0128681883
775000000.000000 0.0365511887 -0.1243474633 -1.7625488043 -9.1227989197 -0.0002140409 0.0033058028 0.1207214221 0.0103855515
780000000.000000 0.0355348922 -0.1247501597 -1.8725661039 -9.1159162521 -0.0001693336 0.0033460686 0.1212079823 0.0077146790
785000000.000000 0.0358721465 -0.1244470030 -1.9790916443 -9.0955047607 -0.0001141074 0.0033986678 0.1215668395 0.0050980616
790000000.000000 0.0345362015 -0.1255752146 -2.0998864174 -9.0814428329 -0.0000670603 0.0034300173 0.1220092177 0.0025401316
795000000.000000 0.0340636484 -0.1249007806 -2.2245678902 -9.0497007370 -0.0000011328 0.0034505096 0.1221974790 -0.0000764652
800000000.000000 0.0324070640 -0.1260910481 -2.3262217045 -9.0362558365 0.0000447593 0.0034746008 0.1224859431 -0.0027444286
805000000.000000 0.0305482261 -0.1254343837 -2.4377095699 -9.0000171661 0.0001232435 0.0035220804 0.1226663962 -0.0052329078
810000000.000000 0.0310476348 -0.1255383939 -2.5427398682 -8.9579448700 0.0001718799 0.0035654907 0.1227064058 -0.0077447239
815000000.000000 0.0295223612 -0.1259549260 -2.6756346226 -8.9399557114 0.0002139584 0.0035908828 0.1227452606 -0.0103953360
820000000.000000 0.0284946561 -0.1266053319 -2.7832417488 -8.9187374115 0.0002976124 0.0036291811 0.1227752492 -0.0131684383
825000000.000000 0.0294374675 -0.1260190308 -2.8957321644 -8.8789262772 0.0003652268 0.0036573287 0.1227767617 -0.0157443229
830000000.000000 0.0290955435 -0.1273262054 -2.9992756844 -8.8485813141 0.0004152046 0.0037103198 0.1226560175 -0.0181583781
835000000.000000 0.0275488645 -0.1273247153 -3.1168239117 -8.8186197281 0.0004867268 0.0037315194 0.1224133819 -0.0209043417
